#Digilent WaveForms Logic Analyzer Acquisition
#Device Name: DDiscovery
#Serial Number: SN:210321B565AC
#Date Time: 2024-03-17 21:23:40.612.472.220
#Sample rate: 29994Hz
#Samples: 30000

Time (s),SPI MOSI,SPI MISO
-0.30942854,X,X
-0.3093952,X,X
-0.30936186,X,X
-0.30932852,X,X
-0.30929518,X,X
-0.30926184,h00,h00
-0.3092285,h00,h00
-0.30919516,h00,h00
-0.30916182,h00,h00
-0.30912848,h00,h00
-0.30909514,h00,h00
-0.3090618,h00,h00
-0.30902846,h00,h00
-0.30899512,h00,h00
-0.30896178,h00,h00
-0.30892844,h00,h00
-0.3088951,h00,h00
-0.30886176,h00,h00
-0.30882842,h00,h00
-0.30879508,h00,h00
-0.30876174,h00,h00
-0.3087284,h00,h00
-0.30869506,h00,h00
-0.30866172,h00,h00
-0.30862838,h00,h00
-0.30859504,h00,h00
-0.3085617,h00,h00
-0.30852836,h00,h00
-0.30849502,h00,h00
-0.30846168,h00,h00
-0.30842834,h00,h00
-0.308395,h00,h00
-0.30836166,h00,h00
-0.30832832,h00,h00
-0.30829498,h00,h00
-0.30826164,h00,h00
-0.3082283,h00,h00
-0.30819496,h00,h00
-0.30816162,h00,h00
-0.30812828,h00,h00
-0.30809494,h00,h00
-0.3080616,h00,h00
-0.30802826,h00,h00
-0.30799492,h00,h00
-0.30796158,h00,h00
-0.30792824,h00,h00
-0.3078949,h00,h00
-0.30786156,h00,h00
-0.30782822,h00,h00
-0.30779488,h00,h00
-0.30776154,h00,h00
-0.3077282,h00,h00
-0.30769486,h00,h00
-0.30766152,h00,h00
-0.30762818,h00,h00
-0.30759484,h00,h00
-0.3075615,h00,h00
-0.30752816,h00,h00
-0.30749482,h00,h00
-0.30746148,h00,h00
-0.30742814,h00,h00
-0.3073948,h00,h00
-0.30736146,h00,h00
-0.30732812,h00,h00
-0.30729478,h00,h00
-0.30726144,h00,h00
-0.3072281,h00,h00
-0.30719476,h00,h00
-0.30716142,h00,h00
-0.30712808,h00,h00
-0.30709474,h00,h00
-0.3070614,h00,h00
-0.30702806,h00,h00
-0.30699472,h00,h00
-0.30696138,h00,h00
-0.30692804,h00,h00
-0.3068947,h00,h00
-0.30686136,h00,h00
-0.30682802,h00,h00
-0.30679468,h00,h00
-0.30676134,h00,h00
-0.306728,h00,h00
-0.30669466,h00,h00
-0.30666132,h00,h00
-0.30662798,h00,h00
-0.30659464,h00,h00
-0.3065613,h00,h00
-0.30652796,h00,h00
-0.30649462,h00,h00
-0.30646128,h00,h00
-0.30642794,h00,h00
-0.3063946,h00,h00
-0.30636126,h00,h00
-0.30632792,h00,h00
-0.30629458,h00,h00
-0.30626124,h00,h00
-0.3062279,h00,h00
-0.30619456,h00,h00
-0.30616122,h00,h00
-0.30612788,h00,h00
-0.30609454,h00,h00
-0.3060612,h00,h00
-0.30602786,h00,h00
-0.30599452,h00,h00
-0.30596118,h00,h00
-0.30592784,h00,h00
-0.3058945,h00,h00
-0.30586116,h00,h00
-0.30582782,h00,h00
-0.30579448,h00,h00
-0.30576114,h00,h00
-0.3057278,h00,h00
-0.30569446,h00,h00
-0.30566112,h00,h00
-0.30562778,h00,h00
-0.30559444,h00,h00
-0.3055611,h00,h00
-0.30552776,h00,h00
-0.30549442,h00,h00
-0.30546108,h00,h00
-0.30542774,h00,h00
-0.3053944,h00,h00
-0.30536106,h00,h00
-0.30532772,h00,h00
-0.30529438,h00,h00
-0.30526104,h00,h00
-0.3052277,h00,h00
-0.30519436,h00,h00
-0.30516102,h00,h00
-0.30512768,h00,h00
-0.30509434,h00,h00
-0.305061,h00,h00
-0.30502766,h00,h00
-0.30499432,h00,h00
-0.30496098,h00,h00
-0.30492764,h00,h00
-0.3048943,h00,h00
-0.30486096,h00,h00
-0.30482762,h00,h00
-0.30479428,h00,h00
-0.30476094,h00,h00
-0.3047276,h00,h00
-0.30469426,h00,h00
-0.30466092,h00,h00
-0.30462758,h00,h00
-0.30459424,h00,h00
-0.3045609,h00,h00
-0.30452756,h00,h00
-0.30449422,h00,h00
-0.30446088,h00,h00
-0.30442754,h00,h00
-0.3043942,h00,h00
-0.30436086,h00,h00
-0.30432752,h00,h00
-0.30429418,h00,h00
-0.30426084,h00,h00
-0.3042275,h00,h00
-0.30419416,h00,h00
-0.30416082,h00,h00
-0.30412748,h00,h00
-0.30409414,h00,h00
-0.3040608,h00,h00
-0.30402746,h00,h00
-0.30399412,h00,h00
-0.30396078,h00,h00
-0.30392744,h00,h00
-0.3038941,h00,h00
-0.30386076,h00,h00
-0.30382742,h00,h00
-0.30379408,h00,h00
-0.30376074,h00,h00
-0.3037274,h00,h00
-0.30369406,h00,h00
-0.30366072,h00,h00
-0.30362738,h00,h00
-0.30359404,h00,h00
-0.3035607,h00,h00
-0.30352736,h00,h00
-0.30349402,h00,h00
-0.30346068,h00,h00
-0.30342734,h00,h00
-0.303394,h00,h00
-0.30336066,h00,h00
-0.30332732,h00,h00
-0.30329398,h00,h00
-0.30326064,h00,h00
-0.3032273,h00,h00
-0.30319396,h00,h00
-0.30316062,h00,h00
-0.30312728,h00,h00
-0.30309394,h00,h00
-0.3030606,h00,h00
-0.30302726,h00,h00
-0.30299392,h00,h00
-0.30296058,h00,h00
-0.30292724,h00,h00
-0.3028939,h00,h00
-0.30286056,h00,h00
-0.30282722,h00,h00
-0.30279388,h00,h00
-0.30276054,h00,h00
-0.3027272,h00,h00
-0.30269386,h00,h00
-0.30266052,h00,h00
-0.30262718,h00,h00
-0.30259384,h00,h00
-0.3025605,h00,h00
-0.30252716,h00,h00
-0.30249382,h00,h00
-0.30246048,h00,h00
-0.30242714,h00,h00
-0.3023938,h00,h00
-0.30236046,h00,h00
-0.30232712,h00,h00
-0.30229378,h00,h00
-0.30226044,h00,h00
-0.3022271,h00,h00
-0.30219376,h00,h00
-0.30216042,h00,h00
-0.30212708,h00,h00
-0.30209374,h00,h00
-0.3020604,h00,h00
-0.30202706,h00,h00
-0.30199372,h00,h00
-0.30196038,h00,h00
-0.30192704,h00,h00
-0.3018937,h00,h00
-0.30186036,h00,h00
-0.30182702,h00,h00
-0.30179368,h00,h00
-0.30176034,h00,h00
-0.301727,h00,h00
-0.30169366,h00,h00
-0.30166032,h00,h00
-0.30162698,h00,h00
-0.30159364,h00,h00
-0.3015603,h00,h00
-0.30152696,h00,h00
-0.30149362,h00,h00
-0.30146028,h00,h00
-0.30142694,h00,h00
-0.3013936,h00,h00
-0.30136026,h00,h00
-0.30132692,h00,h00
-0.30129358,h00,h00
-0.30126024,h00,h00
-0.3012269,h00,h00
-0.30119356,h00,h00
-0.30116022,h00,h00
-0.30112688,h00,h00
-0.30109354,h00,h00
-0.3010602,h00,h00
-0.30102686,h00,h00
-0.30099352,h00,h00
-0.30096018,h00,h00
-0.30092684,h00,h00
-0.3008935,h00,h00
-0.30086016,h00,h00
-0.30082682,h00,h00
-0.30079348,h00,h00
-0.30076014,h00,h00
-0.3007268,h00,h00
-0.30069346,h00,h00
-0.30066012,h00,h00
-0.30062678,h00,h00
-0.30059344,h00,h00
-0.3005601,h00,h00
-0.30052676,h00,h00
-0.30049342,h00,h00
-0.30046008,h00,h00
-0.30042674,h00,h00
-0.3003934,h00,h00
-0.30036006,h00,h00
-0.30032672,h00,h00
-0.30029338,h00,h00
-0.30026004,h00,h00
-0.3002267,h00,h00
-0.30019336,h00,h00
-0.30016002,h00,h00
-0.30012668,h00,h00
-0.30009334,h00,h00
-0.30006,h00,h00
-0.30002666,h00,h00
-0.29999332,h00,h00
-0.29995998,h00,h00
-0.29992664,h00,h00
-0.2998933,h00,h00
-0.29985996,h00,h00
-0.29982662,h00,h00
-0.29979328,h00,h00
-0.29975994,h00,h00
-0.2997266,h00,h00
-0.29969326,h00,h00
-0.29965992,h00,h00
-0.29962658,h00,h00
-0.29959324,h00,h00
-0.2995599,h00,h00
-0.29952656,h00,h00
-0.29949322,h00,h00
-0.29945988,h00,h00
-0.29942654,h00,h00
-0.2993932,h00,h00
-0.29935986,h00,h00
-0.29932652,h00,h00
-0.29929318,h00,h00
-0.29925984,h00,h00
-0.2992265,h00,h00
-0.29919316,h00,h00
-0.29915982,h00,h00
-0.29912648,h00,h00
-0.29909314,h00,h00
-0.2990598,h00,h00
-0.29902646,h00,h00
-0.29899312,h00,h00
-0.29895978,h00,h00
-0.29892644,h00,h00
-0.2988931,h00,h00
-0.29885976,h00,h00
-0.29882642,h00,h00
-0.29879308,h00,h00
-0.29875974,h00,h00
-0.2987264,h00,h00
-0.29869306,h00,h00
-0.29865972,h00,h00
-0.29862638,h00,h00
-0.29859304,h00,h00
-0.2985597,h00,h00
-0.29852636,h00,h00
-0.29849302,h00,h00
-0.29845968,h00,h00
-0.29842634,h00,h00
-0.298393,h00,h00
-0.29835966,h00,h00
-0.29832632,h00,h00
-0.29829298,h00,h00
-0.29825964,h00,h00
-0.2982263,h00,h00
-0.29819296,h00,h00
-0.29815962,h00,h00
-0.29812628,h00,h00
-0.29809294,h00,h00
-0.2980596,h00,h00
-0.29802626,h00,h00
-0.29799292,h00,h00
-0.29795958,h00,h00
-0.29792624,h00,h00
-0.2978929,h00,h00
-0.29785956,h00,h00
-0.29782622,h00,h00
-0.29779288,h00,h00
-0.29775954,h00,h00
-0.2977262,h00,h00
-0.29769286,h00,h00
-0.29765952,h00,h00
-0.29762618,h00,h00
-0.29759284,h00,h00
-0.2975595,h00,h00
-0.29752616,h00,h00
-0.29749282,h00,h00
-0.29745948,h00,h00
-0.29742614,h00,h00
-0.2973928,h00,h00
-0.29735946,h00,h00
-0.29732612,h00,h00
-0.29729278,h00,h00
-0.29725944,h00,h00
-0.2972261,h00,h00
-0.29719276,h00,h00
-0.29715942,h00,h00
-0.29712608,h00,h00
-0.29709274,h00,h00
-0.2970594,h00,h00
-0.29702606,h00,h00
-0.29699272,h00,h00
-0.29695938,h00,h00
-0.29692604,h00,h00
-0.2968927,h00,h00
-0.29685936,h00,h00
-0.29682602,h00,h00
-0.29679268,h00,h00
-0.29675934,h00,h00
-0.296726,h00,h00
-0.29669266,h00,h00
-0.29665932,h00,h00
-0.29662598,h00,h00
-0.29659264,h00,h00
-0.2965593,h00,h00
-0.29652596,h00,h00
-0.29649262,h00,h00
-0.29645928,h00,h00
-0.29642594,h00,h00
-0.2963926,h00,h00
-0.29635926,h00,h00
-0.29632592,h00,h00
-0.29629258,h00,h00
-0.29625924,h00,h00
-0.2962259,h00,h00
-0.29619256,h00,h00
-0.29615922,h00,h00
-0.29612588,h00,h00
-0.29609254,h00,h00
-0.2960592,h00,h00
-0.29602586,h00,h00
-0.29599252,h00,h00
-0.29595918,h00,h00
-0.29592584,h00,h00
-0.2958925,h00,h00
-0.29585916,h00,h00
-0.29582582,h00,h00
-0.29579248,h00,h00
-0.29575914,h00,h00
-0.2957258,h00,h00
-0.29569246,h00,h00
-0.29565912,h00,h00
-0.29562578,h00,h00
-0.29559244,h00,h00
-0.2955591,h00,h00
-0.29552576,h00,h00
-0.29549242,h00,h00
-0.29545908,h00,h00
-0.29542574,h00,h00
-0.2953924,h00,h00
-0.29535906,h00,h00
-0.29532572,h00,h00
-0.29529238,h00,h00
-0.29525904,h00,h00
-0.2952257,h00,h00
-0.29519236,h00,h00
-0.29515902,h00,h00
-0.29512568,h00,h00
-0.29509234,h00,h00
-0.295059,h00,h00
-0.29502566,h00,h00
-0.29499232,h00,h00
-0.29495898,h00,h00
-0.29492564,h00,h00
-0.2948923,h00,h00
-0.29485896,h00,h00
-0.29482562,h00,h00
-0.29479228,h00,h00
-0.29475894,h00,h00
-0.2947256,h00,h00
-0.29469226,h00,h00
-0.29465892,h00,h00
-0.29462558,h00,h00
-0.29459224,h00,h00
-0.2945589,h00,h00
-0.29452556,h00,h00
-0.29449222,h00,h00
-0.29445888,h00,h00
-0.29442554,h00,h00
-0.2943922,h00,h00
-0.29435886,h00,h00
-0.29432552,h00,h00
-0.29429218,h00,h00
-0.29425884,h00,h00
-0.2942255,h00,h00
-0.29419216,h00,h00
-0.29415882,h00,h00
-0.29412548,h00,h00
-0.29409214,h00,h00
-0.2940588,h00,h00
-0.29402546,h00,h00
-0.29399212,h00,h00
-0.29395878,h00,h00
-0.29392544,h00,h00
-0.2938921,h00,h00
-0.29385876,h00,h00
-0.29382542,h00,h00
-0.29379208,h00,h00
-0.29375874,h00,h00
-0.2937254,h00,h00
-0.29369206,h00,h00
-0.29365872,h00,h00
-0.29362538,h00,h00
-0.29359204,h00,h00
-0.2935587,h00,h00
-0.29352536,h00,h00
-0.29349202,h00,h00
-0.29345868,h00,h00
-0.29342534,h00,h00
-0.293392,h00,h00
-0.29335866,h00,h00
-0.29332532,h00,h00
-0.29329198,h00,h00
-0.29325864,h00,h00
-0.2932253,h00,h00
-0.29319196,h00,h00
-0.29315862,h00,h00
-0.29312528,h00,h00
-0.29309194,h00,h00
-0.2930586,h00,h00
-0.29302526,h00,h00
-0.29299192,h00,h00
-0.29295858,h00,h00
-0.29292524,h00,h00
-0.2928919,h00,h00
-0.29285856,h00,h00
-0.29282522,h00,h00
-0.29279188,h00,h00
-0.29275854,h00,h00
-0.2927252,h00,h00
-0.29269186,h00,h00
-0.29265852,h00,h00
-0.29262518,h00,h00
-0.29259184,h00,h00
-0.2925585,h00,h00
-0.29252516,h00,h00
-0.29249182,h00,h00
-0.29245848,h00,h00
-0.29242514,h00,h00
-0.2923918,h00,h00
-0.29235846,h00,h00
-0.29232512,h00,h00
-0.29229178,h00,h00
-0.29225844,h00,h00
-0.2922251,h00,h00
-0.29219176,h00,h00
-0.29215842,h00,h00
-0.29212508,h00,h00
-0.29209174,h00,h00
-0.2920584,h00,h00
-0.29202506,h00,h00
-0.29199172,h00,h00
-0.29195838,h00,h00
-0.29192504,h00,h00
-0.2918917,h00,h00
-0.29185836,h00,h00
-0.29182502,h00,h00
-0.29179168,h00,h00
-0.29175834,h00,h00
-0.291725,h00,h00
-0.29169166,h00,h00
-0.29165832,h00,h00
-0.29162498,h00,h00
-0.29159164,h00,h00
-0.2915583,h00,h00
-0.29152496,h00,h00
-0.29149162,h00,h00
-0.29145828,h00,h00
-0.29142494,h00,h00
-0.2913916,h00,h00
-0.29135826,h00,h00
-0.29132492,h00,h00
-0.29129158,h00,h00
-0.29125824,h00,h00
-0.2912249,h00,h00
-0.29119156,h00,h00
-0.29115822,h00,h00
-0.29112488,h00,h00
-0.29109154,h00,h00
-0.2910582,h00,h00
-0.29102486,h00,h00
-0.29099152,h00,h00
-0.29095818,h00,h00
-0.29092484,h00,h00
-0.2908915,h00,h00
-0.29085816,h00,h00
-0.29082482,h00,h00
-0.29079148,h00,h00
-0.29075814,h00,h00
-0.2907248,h00,h00
-0.29069146,h00,h00
-0.29065812,h00,h00
-0.29062478,h00,h00
-0.29059144,h00,h00
-0.2905581,h00,h00
-0.29052476,h00,h00
-0.29049142,h00,h00
-0.29045808,h00,h00
-0.29042474,h00,h00
-0.2903914,h00,h00
-0.29035806,h00,h00
-0.29032472,h00,h00
-0.29029138,h00,h00
-0.29025804,h00,h00
-0.2902247,h00,h00
-0.29019136,h00,h00
-0.29015802,h00,h00
-0.29012468,h00,h00
-0.29009134,h00,h00
-0.290058,h00,h00
-0.29002466,h00,h00
-0.28999132,h00,h00
-0.28995798,h00,h00
-0.28992464,h00,h00
-0.2898913,h00,h00
-0.28985796,h00,h00
-0.28982462,h00,h00
-0.28979128,h00,h00
-0.28975794,h00,h00
-0.2897246,h00,h00
-0.28969126,h00,h00
-0.28965792,h00,h00
-0.28962458,h00,h00
-0.28959124,h00,h00
-0.2895579,h00,h00
-0.28952456,h00,h00
-0.28949122,h00,h00
-0.28945788,h00,h00
-0.28942454,h00,h00
-0.2893912,h00,h00
-0.28935786,h00,h00
-0.28932452,h00,h00
-0.28929118,h00,h00
-0.28925784,h00,h00
-0.2892245,h00,h00
-0.28919116,h00,h00
-0.28915782,h00,h00
-0.28912448,h00,h00
-0.28909114,h00,h00
-0.2890578,h00,h00
-0.28902446,h00,h00
-0.28899112,h00,h00
-0.28895778,h00,h00
-0.28892444,h00,h00
-0.2888911,h00,h00
-0.28885776,h00,h00
-0.28882442,h00,h00
-0.28879108,h00,h00
-0.28875774,h00,h00
-0.2887244,h00,h00
-0.28869106,h00,h00
-0.28865772,h00,h00
-0.28862438,h00,h00
-0.28859104,h00,h00
-0.2885577,h00,h00
-0.28852436,h00,h00
-0.28849102,h00,h00
-0.28845768,h00,h00
-0.28842434,h00,h00
-0.288391,h00,h00
-0.28835766,h00,h00
-0.28832432,h00,h00
-0.28829098,h00,h00
-0.28825764,h00,h00
-0.2882243,h00,h00
-0.28819096,h00,h00
-0.28815762,h00,h00
-0.28812428,h00,h00
-0.28809094,h00,h00
-0.2880576,h00,h00
-0.28802426,h00,h00
-0.28799092,h00,h00
-0.28795758,h00,h00
-0.28792424,h00,h00
-0.2878909,h00,h00
-0.28785756,h00,h00
-0.28782422,h00,h00
-0.28779088,h00,h00
-0.28775754,h00,h00
-0.2877242,h00,h00
-0.28769086,h00,h00
-0.28765752,h00,h00
-0.28762418,h00,h00
-0.28759084,h00,h00
-0.2875575,h00,h00
-0.28752416,h00,h00
-0.28749082,h00,h00
-0.28745748,h00,h00
-0.28742414,h00,h00
-0.2873908,h00,h00
-0.28735746,h00,h00
-0.28732412,h00,h00
-0.28729078,h00,h00
-0.28725744,? h0,? h0
-0.2872241,? h0,? h0
-0.28719076,? h0,? h0
-0.28715742,? h0,? h0
-0.28712408,? h0,? h0
-0.28709074,? h0,? h0
-0.2870574,? h0,? h0
-0.28702406,? h0,? h0
-0.28699072,? h0,? h0
-0.28695738,? h0,? h0
-0.28692404,? h0,? h0
-0.2868907,? h0,? h0
-0.28685736,? h0,? h0
-0.28682402,? h0,? h0
-0.28679068,? h0,? h0
-0.28675734,? h0,? h0
-0.286724,? h0,? h0
-0.28669066,? h0,? h0
-0.28665732,? h0,? h0
-0.28662398,? h0,? h0
-0.28659064,? h0,? h0
-0.2865573,? h0,? h0
-0.28652396,? h0,? h0
-0.28649062,? h0,? h0
-0.28645728,? h0,? h0
-0.28642394,? h0,? h0
-0.2863906,? h0,? h0
-0.28635726,? h0,? h0
-0.28632392,? h0,? h0
-0.28629058,? h0,? h0
-0.28625724,? h0,? h0
-0.2862239,? h0,? h0
-0.28619056,? h0,? h0
-0.28615722,? h0,? h0
-0.28612388,? h0,? h0
-0.28609054,? h0,? h0
-0.2860572,? h0,? h0
-0.28602386,? h0,? h0
-0.28599052,? h0,? h0
-0.28595718,? h0,? h0
-0.28592384,? h0,? h0
-0.2858905,? h0,? h0
-0.28585716,? h0,? h0
-0.28582382,? h0,? h0
-0.28579048,? h0,? h0
-0.28575714,? h0,? h0
-0.2857238,? h0,? h0
-0.28569046,? h0,? h0
-0.28565712,X,X
-0.28562378,X,X
-0.28559044,X,X
-0.2855571,X,X
-0.28552376,X,X
-0.28549042,X,X
-0.28545708,X,X
-0.28542374,X,X
-0.2853904,X,X
-0.28535706,X,X
-0.28532372,X,X
-0.28529038,X,X
-0.28525704,X,X
-0.2852237,X,X
-0.28519036,X,X
-0.28515702,X,X
-0.28512368,X,X
-0.28509034,X,X
-0.285057,X,X
-0.28502366,X,X
-0.28499032,X,X
-0.28495698,X,X
-0.28492364,X,X
-0.2848903,X,X
-0.28485696,X,X
-0.28482362,X,X
-0.28479028,X,X
-0.28475694,X,X
-0.2847236,X,X
-0.28469026,X,X
-0.28465692,X,X
-0.28462358,X,X
-0.28459024,X,X
-0.2845569,X,X
-0.28452356,X,X
-0.28449022,hCA,h00
-0.28445688,hCA,h00
-0.28442354,hCA,h00
-0.2843902,hCA,h00
-0.28435686,hCA,h00
-0.28432352,hCA,h00
-0.28429018,hCA,h00
-0.28425684,hCA,h00
-0.2842235,hCA,h00
-0.28419016,hCA,h00
-0.28415682,hCA,h00
-0.28412348,hCA,h00
-0.28409014,hCA,h00
-0.2840568,hCA,h00
-0.28402346,hCA,h00
-0.28399012,hCA,h00
-0.28395678,hCA,h00
-0.28392344,hCA,h00
-0.2838901,hCA,h00
-0.28385676,hCA,h00
-0.28382342,hCA,h00
-0.28379008,hCA,h00
-0.28375674,hCA,h00
-0.2837234,hCA,h00
-0.28369006,hCA,h00
-0.28365672,hCA,h00
-0.28362338,hCA,h00
-0.28359004,hCA,h00
-0.2835567,hCA,h00
-0.28352336,hCA,h00
-0.28349002,hCA,h00
-0.28345668,hCA,h00
-0.28342334,hCA,h00
-0.28339,hCA,h00
-0.28335666,hCA,h00
-0.28332332,hCA,h00
-0.28328998,hCA,h00
-0.28325664,hCA,h00
-0.2832233,hCA,h00
-0.28318996,hCA,h00
-0.28315662,hCA,h00
-0.28312328,hCA,h00
-0.28308994,hCA,h00
-0.2830566,hCA,h00
-0.28302326,hCA,h00
-0.28298992,hCA,h00
-0.28295658,hCA,h00
-0.28292324,hCA,h00
-0.2828899,hCA,h00
-0.28285656,hCA,h00
-0.28282322,hCA,h00
-0.28278988,hCA,h00
-0.28275654,hCA,h00
-0.2827232,hCA,h00
-0.28268986,hCA,h00
-0.28265652,hCA,h00
-0.28262318,hCA,h00
-0.28258984,hCA,h00
-0.2825565,hCA,h00
-0.28252316,hCA,h00
-0.28248982,hCA,h00
-0.28245648,hCA,h00
-0.28242314,hCA,h00
-0.2823898,hCA,h00
-0.28235646,hCA,h00
-0.28232312,hCA,h00
-0.28228978,hCA,h00
-0.28225644,hCA,h00
-0.2822231,hCA,h00
-0.28218976,hCA,h00
-0.28215642,hCA,h00
-0.28212308,hCA,h00
-0.28208974,hCA,h00
-0.2820564,hCA,h00
-0.28202306,hCA,h00
-0.28198972,hCA,h00
-0.28195638,hCA,h00
-0.28192304,hCA,h00
-0.2818897,hCA,h00
-0.28185636,hCA,h00
-0.28182302,hCA,h00
-0.28178968,hCA,h00
-0.28175634,hCA,h00
-0.281723,hCA,h00
-0.28168966,hCA,h00
-0.28165632,hCA,h00
-0.28162298,hCA,h00
-0.28158964,hCA,h00
-0.2815563,hCA,h00
-0.28152296,hCA,h00
-0.28148962,hCA,h00
-0.28145628,hCA,h00
-0.28142294,hCA,h00
-0.2813896,hCA,h00
-0.28135626,hCA,h00
-0.28132292,hCA,h00
-0.28128958,hCA,h00
-0.28125624,hCA,h00
-0.2812229,hCA,h00
-0.28118956,hCA,h00
-0.28115622,hCA,h00
-0.28112288,hCA,h00
-0.28108954,hCA,h00
-0.2810562,hCA,h00
-0.28102286,hCA,h00
-0.28098952,hCA,h00
-0.28095618,hCA,h00
-0.28092284,hCA,h00
-0.2808895,hCA,h00
-0.28085616,hCA,h00
-0.28082282,hCA,h00
-0.28078948,hCA,h00
-0.28075614,hCA,h00
-0.2807228,hCA,h00
-0.28068946,hCA,h00
-0.28065612,hCA,h00
-0.28062278,h00,h00
-0.28058944,h00,h00
-0.2805561,h00,h00
-0.28052276,h00,h00
-0.28048942,h00,h00
-0.28045608,h00,h00
-0.28042274,h00,h00
-0.2803894,h00,h00
-0.28035606,h00,h00
-0.28032272,h00,h00
-0.28028938,h00,h00
-0.28025604,h00,h00
-0.2802227,h00,h00
-0.28018936,h00,h00
-0.28015602,h00,h00
-0.28012268,h00,h00
-0.28008934,h00,h00
-0.280056,h00,h00
-0.28002266,h00,h00
-0.27998932,h00,h00
-0.27995598,h00,h00
-0.27992264,h00,h00
-0.2798893,h00,h00
-0.27985596,h00,h00
-0.27982262,h00,h00
-0.27978928,h00,h00
-0.27975594,h00,h00
-0.2797226,h00,h00
-0.27968926,h00,h00
-0.27965592,h00,h00
-0.27962258,h00,h00
-0.27958924,h00,h00
-0.2795559,h00,h00
-0.27952256,h00,h00
-0.27948922,h00,h00
-0.27945588,h00,h00
-0.27942254,h00,h00
-0.2793892,h00,h00
-0.27935586,h00,h00
-0.27932252,h00,h00
-0.27928918,h00,h00
-0.27925584,h00,h00
-0.2792225,h00,h00
-0.27918916,h00,h00
-0.27915582,h00,h00
-0.27912248,h00,h00
-0.27908914,h00,h00
-0.2790558,h00,h00
-0.27902246,h00,h00
-0.27898912,h00,h00
-0.27895578,h00,h00
-0.27892244,h00,h00
-0.2788891,h00,h00
-0.27885576,h00,h00
-0.27882242,h00,h00
-0.27878908,h00,h00
-0.27875574,h00,h00
-0.2787224,h00,h00
-0.27868906,h00,h00
-0.27865572,h00,h00
-0.27862238,h00,h00
-0.27858904,h00,h00
-0.2785557,h00,h00
-0.27852236,h00,h00
-0.27848902,h00,h00
-0.27845568,h00,h00
-0.27842234,h00,h00
-0.278389,h00,h00
-0.27835566,h00,h00
-0.27832232,h00,h00
-0.27828898,h00,h00
-0.27825564,h00,h00
-0.2782223,h00,h00
-0.27818896,h00,h00
-0.27815562,h00,h00
-0.27812228,h00,h00
-0.27808894,h00,h00
-0.2780556,h00,h00
-0.27802226,h00,h00
-0.27798892,h00,h00
-0.27795558,h00,h00
-0.27792224,h00,h00
-0.2778889,h00,h00
-0.27785556,h00,h00
-0.27782222,h00,h00
-0.27778888,h00,h00
-0.27775554,h00,h00
-0.2777222,h00,h00
-0.27768886,h00,h00
-0.27765552,h00,h00
-0.27762218,h00,h00
-0.27758884,h00,h00
-0.2775555,h00,h00
-0.27752216,h00,h00
-0.27748882,h00,h00
-0.27745548,h00,h00
-0.27742214,h00,h00
-0.2773888,h00,h00
-0.27735546,h00,h00
-0.27732212,h00,h00
-0.27728878,h00,h00
-0.27725544,h00,h00
-0.2772221,h00,h00
-0.27718876,h00,h00
-0.27715542,h00,h00
-0.27712208,h00,h00
-0.27708874,h00,h00
-0.2770554,h00,h00
-0.27702206,h00,h00
-0.27698872,h00,h00
-0.27695538,h00,h00
-0.27692204,h00,h00
-0.2768887,h00,h00
-0.27685536,h00,h00
-0.27682202,h00,h00
-0.27678868,h00,h00
-0.27675534,h00,h00
-0.276722,h00,h00
-0.27668866,h00,h00
-0.27665532,h00,h00
-0.27662198,h00,h00
-0.27658864,h00,h00
-0.2765553,h00,h00
-0.27652196,h00,h00
-0.27648862,h10,h00
-0.27645528,h10,h00
-0.27642194,h10,h00
-0.2763886,h10,h00
-0.27635526,h10,h00
-0.27632192,h10,h00
-0.27628858,h10,h00
-0.27625524,h10,h00
-0.2762219,h10,h00
-0.27618856,h10,h00
-0.27615522,h10,h00
-0.27612188,h10,h00
-0.27608854,h10,h00
-0.2760552,h10,h00
-0.27602186,h10,h00
